MOB
 can0 0CFF3400 [8] 41 9F FE 84 0E 32 B3 1D
 can0 0CFF3400 [8] 41 9F FE 84 0E 32 33 1D
display starts on 1, click->2,3,4,1
 can0 0CFF3400 [8] 41 9F FE 84 0E 32 B3 07
 can0 0CFF3400 [8] 41 9F FE 84 0E 32 33 07
 can0 0DFF1D00 [8] 20 0E 41 9F FE FF FF FF
 can0 0DFF1D00 [8] 21 2F 4A 00 00 FF FF FF
 can0 0DFF1D00 [8] 22 FF FF FF FF FF FF FF
 can0 0CFF3400 [8] 41 9F FE 84 0E 32 B3 07
 can0 0CFF3400 [8] 41 9F FE 84 0E 32 33 07
 can0 0DFF1D00 [8] 40 0E 41 9F FE FF FF FF
 can0 0DFF1D00 [8] 41 2F 4A 00 00 FF FF FF
 can0 0DFF1D00 [8] 42 FF FF FF FF FF FF FF
 can0 0CFF3400 [8] 41 9F FE 84 0E 32 B3 07
 can0 0CFF3400 [8] 41 9F FE 84 0E 32 33 07
 can0 0DFF1D00 [8] 60 0E 41 9F FE FF FF FF
 can0 0DFF1D00 [8] 61 2F 4A 00 00 FF FF FF
 can0 0DFF1D00 [8] 62 FF FF FF FF FF FF FF
 can0 0CFF3400 [8] 41 9F FE 84 0E 32 B3 07
 can0 0CFF3400 [8] 41 9F FE 84 0E 32 33 07
 can0 0DFF1D00 [8] 80 0E 41 9F FE FF FF FF
 can0 0DFF1D00 [8] 81 2F 4A 00 00 FF FF FF
 can0 0DFF1D00 [8] 82 FF FF FF FF FF FF FF
1
 can0 0CFF3400 [8] 41 9F FE 84 0E 32 B3 1E
 can0 0CFF3400 [8] 41 9F FE 84 0E 32 33 1E
2
 can0 0CFF3400 [8] 41 9F FE 84 0E 32 B3 1F
 can0 0CFF3400 [8] 41 9F FE 84 0E 32 33 1F
3
 can0 0CFF3400 [8] 41 9F FE 84 0E 32 B3 20
 can0 0CFF3400 [8] 41 9F FE 84 0E 32 33 20
4
 can0 0CFF3400 [8] 41 9F FE 84 0E 32 B3 21
 can0 0CFF3400 [8] 41 9F FE 84 0E 32 33 21
5
 can0 0CFF3400 [8] 41 9F FE 84 0E 32 B3 22
 can0 0CFF3400 [8] 41 9F FE 84 0E 32 33 22
6
 can0 0CFF3400 [8] 41 9F FE 84 0E 32 B3 23
 can0 0CFF3400 [8] 41 9F FE 84 0E 32 33 23
7
 can0 0CFF3400 [8] 41 9F FE 84 0E 32 B3 24
 can0 0CFF3400 [8] 41 9F FE 84 0E 32 33 24
8
 can0 0CFF3400 [8] 41 9F FE 84 0E 32 B3 25
 can0 0CFF3400 [8] 41 9F FE 84 0E 32 33 25
9
 can0 0CFF3400 [8] 41 9F FE 84 0E 32 B3 26
 can0 0CFF3400 [8] 41 9F FE 84 0E 32 33 26
0
 can0 0CFF3400 [8] 41 9F FE 84 0E 32 B3 27
 can0 0CFF3400 [8] 41 9F FE 84 0E 32 33 27
stby auto
 can0 0CFF3400 [8] 41 9F FE 84 0E 32 B3 04
 can0 0CFF3400 [8] 41 9F FE 84 0E 32 33 04
pwr
 can0 0CFF3400 [8] 41 9F FE 84 0E 32 B3 14
 can0 0CFF3400 [8] 41 9F FE 84 0E 32 33 14
in
 can0 0CFF3400 [8] 41 9F FE 84 0E 32 B3 57
 can0 0CFF3400 [8] 41 9F FE 84 0E 32 33 57
out
 can0 0CFF3400 [8] 41 9F FE 84 0E 32 B3 56
 can0 0CFF3400 [8] 41 9F FE 84 0E 32 33 56
plot
 can0 0CFF3400 [8] 41 9F FE 84 0E 32 B3 1B
 can0 0CFF3400 [8] 41 9F FE 84 0E 32 33 1B
go to
 can0 0CFF3400 [8] 41 9F FE 84 0E 32 B3 0A
 can0 0CFF3400 [8] 41 9F FE 84 0E 32 33 0A
chart
 can0 0CFF3400 [8] 41 9F FE 84 0E 32 B3 1A
 can0 0CFF3400 [8] 41 9F FE 84 0E 32 33 1A
radar
 can0 0CFF3400 [8] 41 9F FE 84 0E 32 B3 08
 can0 0CFF3400 [8] 41 9F FE 84 0E 32 33 08
echo
 can0 0CFF3400 [8] 41 9F FE 84 0E 32 B3 15
 can0 0CFF3400 [8] 41 9F FE 84 0E 32 33 15
nav
 can0 0CFF3400 [8] 41 9F FE 84 0E 32 B3 17
 can0 0CFF3400 [8] 41 9F FE 84 0E 32 33 17
info
 can0 0CFF3400 [8] 41 9F FE 84 0E 32 B3 1C
 can0 0CFF3400 [8] 41 9F FE 84 0E 32 33 1C
pages
 can0 0CFF3400 [8] 41 9F FE 84 0E 32 B3 13
 can0 0CFF3400 [8] 41 9F FE 84 0E 32 33 13
knob right
 can0 0CFF3400 [8] 41 9F FE 85 00 00 FF 08
know left
 can0 0CFF3400 [8] 41 9F FE 85 00 00 01 08
knob push
 can0 0CFF3400 [8] 41 9F FE 84 0E 32 B3 58
 can0 0CFF3400 [8] 41 9F FE 84 0E 32 33 58
up
 can0 0CFF3400 [8] 41 9F FE 84 0E 32 B3 52
 can0 0CFF3400 [8] 41 9F FE 84 0E 32 33 52
down
 can0 0CFF3400 [8] 41 9F FE 84 0E 32 B3 51
 can0 0CFF3400 [8] 41 9F FE 84 0E 32 33 51
left
 can0 0CFF3400 [8] 41 9F FE 84 0E 32 B3 50
 can0 0CFF3400 [8] 41 9F FE 84 0E 32 33 50
right
 can0 0CFF3400 [8] 41 9F FE 84 0E 32 B3 4F
 can0 0CFF3400 [8] 41 9F FE 84 0E 32 33 4F
menu
 can0 0CFF3400 [8] 41 9F FE 84 0E 32 B3 10
 can0 0CFF3400 [8] 41 9F FE 84 0E 32 33 10
win
 can0 0CFF3400 [8] 41 9F FE 84 0E 32 B3 06
 can0 0CFF3400 [8] 41 9F FE 84 0E 32 33 06
There's a beeping alarm function that I don't understand. It's there, perhaps it's a registy looking for a response. can0 18EA0000 [3] 00 EE 00
 can0 18EEFF00 [8] 2A 54 B7 2F 00 8C 50 C0
